T1678 000:212.118   SEGGER J-Link V7.88j Log File
T1678 000:212.768   DLL Compiled: Jun 28 2023 13:33:44
T1678 000:212.773   Logging started @ 2024-03-21 04:10
T1678 000:212.778 - 212.780ms
T1678 000:212.918 JLINK_SetWarnOutHandler(...)
T1678 000:213.052 - 0.137ms
T1678 000:213.059 JLINK_OpenEx(...)
T1678 000:216.008   SERVER_Parent Server (S/N 59610017) is using protocol version 51206 which is too old (>= 54110 required). Closing connection to server.
T1678 000:217.752   Firmware: J-Link V9 compiled May  7 2021 16:26:12
T1678 000:218.278   Firmware: J-Link V9 compiled May  7 2021 16:26:12
T1678 000:218.458   Decompressing FW timestamp took 158 us
T1678 000:226.557   Hardware: V9.60
T1678 000:226.576   S/N: 59610017
T1678 000:226.587   OEM: SEGGER
T1678 000:226.598   Feature(s): RDI, GDB, FlashDL, FlashBP, JFlash
T1678 000:227.672   Bootloader: (Could not read)
T1678 000:232.687   TELNET listener socket opened on port 19021
T1678 000:232.864   WEBSRV WEBSRV_Init(): Starting webserver thread(s)
T1678 000:233.078   WEBSRV Webserver running on local port 19080
T1678 000:233.209   Looking for J-Link GUI Server exe at: C:\Keil_v5\ARM\Segger\JLinkGUIServer.exe
T1678 000:233.275   Looking for J-Link GUI Server exe at: C:\Program Files\SEGGER\JLink\JLinkGUIServer.exe
T1678 000:233.318   Forking J-Link GUI Server: C:\Program Files\SEGGER\JLink\JLinkGUIServer.exe
T1678 000:236.188   J-Link GUI Server info: "J-Link GUI server V7.88j "
T1678 000:236.608 - 23.557ms returns "O.K."
T1678 000:236.830 JLINK_SetErrorOutHandler(...)
T1678 000:236.840 - 0.013ms
T1678 000:237.172 JLINK_ExecCommand("ProjectFile = "C:\Users\zyk\Desktop\BCI_0925\SDK16_0914\examples\ble_peripheral\ble_app_uart_hs\pca10040\s132\arm5_no_packs\JLinkSettings.ini"", ...). 
T1678 000:275.820   Ref file found at: C:\Keil_v5\ARM\Segger\JLinkDevices.ref
T1678 000:275.953   REF file references invalid XML file: C:\Program Files\SEGGER\JLink\JLinkDevices.xml
T1678 000:276.142 - 38.976ms returns 0x00
T1678 000:280.154 JLINK_ExecCommand("Device = nRF52832_xxAA", ...). 
T1678 000:283.742   Device "NRF52832_XXAA" selected.
T1678 000:284.087 - 3.926ms returns 0x00
T1678 000:284.098 JLINK_ExecCommand("DisableConnectionTimeout", ...). 
T1678 000:284.106 - 0.005ms returns 0x01
T1678 000:284.116 JLINK_GetHardwareVersion()
T1678 000:284.121 - 0.007ms returns 96000
T1678 000:284.303 JLINK_GetDLLVersion()
T1678 000:284.322 - 0.023ms returns 78810
T1678 000:284.332 JLINK_GetOEMString(...)
T1678 000:284.344 JLINK_GetFirmwareString(...)
T1678 000:284.352 - 0.011ms
T1678 000:295.451 JLINK_GetDLLVersion()
T1678 000:295.466 - 0.017ms returns 78810
T1678 000:295.473 JLINK_GetCompileDateTime()
T1678 000:295.478 - 0.006ms
T1678 000:297.911 JLINK_GetFirmwareString(...)
T1678 000:297.922 - 0.013ms
T1678 000:301.937 JLINK_GetHardwareVersion()
T1678 000:301.950 - 0.016ms returns 96000
T1678 000:304.302 JLINK_GetSN()
T1678 000:304.313 - 0.012ms returns 59610017
T1678 000:306.647 JLINK_GetOEMString(...)
T1678 000:312.450 JLINK_TIF_Select(JLINKARM_TIF_SWD)
T1678 000:314.522 - 2.083ms returns 0x00
T1678 000:314.543 JLINK_HasError()
T1678 000:314.747 JLINK_SetSpeed(5000)
T1678 000:315.616 - 0.881ms
T1678 000:315.637 JLINK_GetId()
T1678 000:324.086   InitTarget() start
T1678 000:324.289    J-Link Script File: Executing InitTarget()
T1678 000:329.700   InitTarget() end - Took 2.73ms
T1678 000:333.823   Found SW-DP with ID 0x2BA01477
T1678 000:341.297   DPIDR: 0x2BA01477
T1678 000:343.567   CoreSight SoC-400 or earlier
T1678 000:346.847   Scanning AP map to find all available APs
T1678 000:350.610   AP[2]: Stopped AP scan as end of AP map has been reached
T1678 000:353.148   AP[0]: AHB-AP (IDR: 0x24770011)
T1678 000:355.448   AP[1]: JTAG-AP (IDR: 0x02880000)
T1678 000:357.720   Iterating through AP map to find AHB-AP to use
T1678 000:361.892   AP[0]: Core found
T1678 000:364.924   AP[0]: AHB-AP ROM base: 0xE00FF000
T1678 000:368.232   CPUID register: 0x410FC241. Implementer code: 0x41 (ARM)
T1678 000:370.438   Found Cortex-M4 r0p1, Little endian.
T1678 000:370.815   -- Max. mem block: 0x0000D6A8
T1678 000:371.471   CPU_ReadMem(4 bytes @ 0xE000EDF0)
T1678 000:371.704   CPU_ReadMem(4 bytes @ 0xE0002000)
T1678 000:374.538   FPUnit: 6 code (BP) slots and 2 literal slots
T1678 000:374.552   CPU_ReadMem(4 bytes @ 0xE000EDFC)
T1678 000:374.785   CPU_ReadMem(4 bytes @ 0xE0001000)
T1678 000:375.033   CPU_WriteMem(4 bytes @ 0xE0001000)
T1678 000:375.283   CPU_ReadMem(4 bytes @ 0xE000ED88)
T1678 000:375.512   CPU_WriteMem(4 bytes @ 0xE000ED88)
T1678 000:375.756   CPU_ReadMem(4 bytes @ 0xE000ED88)
T1678 000:376.040   CPU_WriteMem(4 bytes @ 0xE000ED88)
T1678 000:379.989   CoreSight components:
T1678 000:382.946   ROMTbl[0] @ E00FF000
T1678 000:382.972   CPU_ReadMem(64 bytes @ 0xE00FF000)
T1678 000:383.480   CPU_ReadMem(32 bytes @ 0xE000EFE0)
T1678 000:388.682   [0][0]: E000E000 CID B105E00D PID 000BB00C SCS-M7
T1678 000:388.703   CPU_ReadMem(32 bytes @ 0xE0001FE0)
T1678 000:391.314   [0][1]: E0001000 CID B105E00D PID 003BB002 DWT
T1678 000:391.327   CPU_ReadMem(32 bytes @ 0xE0002FE0)
T1678 000:394.845   [0][2]: E0002000 CID B105E00D PID 002BB003 FPB
T1678 000:394.858   CPU_ReadMem(32 bytes @ 0xE0000FE0)
T1678 000:398.220   [0][3]: E0000000 CID B105E00D PID 003BB001 ITM
T1678 000:398.234   CPU_ReadMem(32 bytes @ 0xE0040FE0)
T1678 000:401.731   [0][4]: E0040000 CID B105900D PID 000BB9A1 TPIU
T1678 000:401.745   CPU_ReadMem(32 bytes @ 0xE0041FE0)
T1678 000:404.415   [0][5]: E0041000 CID B105900D PID 000BB925 ETM
T1678 000:404.632 - 89.002ms returns 0x2BA01477
T1678 000:404.651 JLINK_GetDLLVersion()
T1678 000:404.656 - 0.007ms returns 78810
T1678 000:404.709 JLINK_CORE_GetFound()
T1678 000:404.715 - 0.008ms returns 0xE0000FF
T1678 000:404.726 JLINK_GetDebugInfo(0x100 = JLINKARM_ROM_TABLE_ADDR_INDEX)
T1678 000:404.732   Value=0xE00FF000
T1678 000:404.739 - 0.014ms returns 0
T1678 000:407.700 JLINK_ReadMem(0xE00FF000, 0x20 Bytes, ...)
T1678 000:407.726   CPU_ReadMem(32 bytes @ 0xE00FF000)
T1678 000:408.137   Data:  03 F0 F0 FF 03 20 F0 FF 03 30 F0 FF 03 10 F0 FF ...
T1678 000:408.157 - 0.460ms returns 0
T1678 000:408.170 JLINK_ReadMem(0xE000EFF0, 0x10 Bytes, ...)
T1678 000:408.186   CPU_ReadMem(16 bytes @ 0xE000EFF0)
T1678 000:408.650   Data:  0D 00 00 00 E0 00 00 00 05 00 00 00 B1 00 00 00
T1678 000:408.658 - 0.490ms returns 0
T1678 000:408.665 JLINK_ReadMem(0xE000EFD0, 0x20 Bytes, ...)
T1678 000:408.672   CPU_ReadMem(32 bytes @ 0xE000EFD0)
T1678 000:409.232   Data:  04 00 00 00 00 00 00 00 00 00 00 00 00 00 00 00 ...
T1678 000:409.244 - 0.583ms returns 0
T1678 000:409.255 JLINK_ReadMem(0xE0001FF0, 0x10 Bytes, ...)
T1678 000:409.266   CPU_ReadMem(16 bytes @ 0xE0001FF0)
T1678 000:409.758   Data:  0D 00 00 00 E0 00 00 00 05 00 00 00 B1 00 00 00
T1678 000:409.770 - 0.518ms returns 0
T1678 000:409.780 JLINK_ReadMem(0xE0001FD0, 0x20 Bytes, ...)
T1678 000:409.790   CPU_ReadMem(32 bytes @ 0xE0001FD0)
T1678 000:410.341   Data:  04 00 00 00 00 00 00 00 00 00 00 00 00 00 00 00 ...
T1678 000:410.353 - 0.576ms returns 0
T1678 000:410.363 JLINK_ReadMem(0xE0002FF0, 0x10 Bytes, ...)
T1678 000:410.373   CPU_ReadMem(16 bytes @ 0xE0002FF0)
T1678 000:410.862   Data:  0D 00 00 00 E0 00 00 00 05 00 00 00 B1 00 00 00
T1678 000:410.874 - 0.515ms returns 0
T1678 000:410.884 JLINK_ReadMem(0xE0002FD0, 0x20 Bytes, ...)
T1678 000:410.894   CPU_ReadMem(32 bytes @ 0xE0002FD0)
T1678 000:411.440   Data:  04 00 00 00 00 00 00 00 00 00 00 00 00 00 00 00 ...
T1678 000:411.452 - 0.570ms returns 0
T1678 000:411.462 JLINK_ReadMem(0xE0000FF0, 0x10 Bytes, ...)
T1678 000:411.472   CPU_ReadMem(16 bytes @ 0xE0000FF0)
T1678 000:412.042   Data:  0D 00 00 00 E0 00 00 00 05 00 00 00 B1 00 00 00
T1678 000:412.054 - 0.595ms returns 0
T1678 000:412.064 JLINK_ReadMem(0xE0000FD0, 0x20 Bytes, ...)
T1678 000:412.074   CPU_ReadMem(32 bytes @ 0xE0000FD0)
T1678 000:412.618   Data:  04 00 00 00 00 00 00 00 00 00 00 00 00 00 00 00 ...
T1678 000:412.631 - 0.570ms returns 0
T1678 000:412.642 JLINK_ReadMem(0xE0040FF0, 0x10 Bytes, ...)
T1678 000:412.655   CPU_ReadMem(16 bytes @ 0xE0040FF0)
T1678 000:413.135   Data:  0D 00 00 00 90 00 00 00 05 00 00 00 B1 00 00 00
T1678 000:413.148 - 0.509ms returns 0
T1678 000:413.159 JLINK_ReadMem(0xE0040FD0, 0x20 Bytes, ...)
T1678 000:413.170   CPU_ReadMem(32 bytes @ 0xE0040FD0)
T1678 000:413.737   Data:  04 00 00 00 00 00 00 00 00 00 00 00 00 00 00 00 ...
T1678 000:413.751 - 0.595ms returns 0
T1678 000:413.762 JLINK_ReadMem(0xE0041FF0, 0x10 Bytes, ...)
T1678 000:413.774   CPU_ReadMem(16 bytes @ 0xE0041FF0)
T1678 000:414.250   Data:  0D 00 00 00 90 00 00 00 05 00 00 00 B1 00 00 00
T1678 000:414.261 - 0.502ms returns 0
T1678 000:414.271 JLINK_ReadMem(0xE0041FD0, 0x20 Bytes, ...)
T1678 000:414.281   CPU_ReadMem(32 bytes @ 0xE0041FD0)
T1678 000:414.827   Data:  04 00 00 00 00 00 00 00 00 00 00 00 00 00 00 00 ...
T1678 000:414.838 - 0.569ms returns 0
T1678 000:414.846 JLINK_ReadMemU32(0xE000EF40, 0x1 Items)
T1678 000:414.855   CPU_ReadMem(4 bytes @ 0xE000EF40)
T1678 000:415.298   Data:  21 00 11 10
T1678 000:415.306 - 0.462ms returns 1 (0x1)
T1678 000:415.314 JLINK_ReadMemU32(0xE000EF44, 0x1 Items)
T1678 000:415.321   CPU_ReadMem(4 bytes @ 0xE000EF44)
T1678 000:416.253   Data:  11 00 00 11
T1678 000:416.266 - 0.956ms returns 1 (0x1)
T1678 000:416.278 JLINK_ReadMemU32(0xE000ED00, 0x1 Items)
T1678 000:416.290   CPU_ReadMem(4 bytes @ 0xE000ED00)
T1678 000:417.121   Data:  41 C2 0F 41
T1678 000:417.135   Debug reg: CPUID
T1678 000:417.145 - 0.870ms returns 1 (0x1)
T1678 000:417.157 JLINK_HasError()
T1678 000:417.166 JLINK_SetResetType(JLINKARM_CM3_RESET_TYPE_NORMAL)
T1678 000:417.174 - 0.011ms returns JLINKARM_CM3_RESET_TYPE_NORMAL
T1678 000:417.183 JLINK_Reset()
T1678 000:417.202   CPU is running
T1678 000:417.214   CPU_WriteMem(4 bytes @ 0xE000EDF0)
T1678 000:417.626   CPU is running
T1678 000:417.647   CPU_WriteMem(4 bytes @ 0xE000EDFC)
T1678 000:420.449   Reset: Halt core after reset via DEMCR.VC_CORERESET.
T1678 000:423.440   Reset: Reset device via AIRCR.SYSRESETREQ.
T1678 000:423.465   CPU is running
T1678 000:423.480   CPU_WriteMem(4 bytes @ 0xE000ED0C)
T1678 000:475.907   CPU_ReadMem(4 bytes @ 0xE000EDF0)
T1678 000:476.178   CPU_ReadMem(4 bytes @ 0xE000EDF0)
T1678 000:478.728   CPU_WriteMem(4 bytes @ 0xE000EDFC)
T1678 000:484.245   CPU_ReadMem(4 bytes @ 0xE000EDF0)
T1678 000:486.523   CPU_WriteMem(4 bytes @ 0xE0002000)
T1678 000:486.782   CPU_ReadMem(4 bytes @ 0xE000EDFC)
T1678 000:487.048   CPU_ReadMem(4 bytes @ 0xE0001000)
T1678 000:487.307 - 70.133ms
T1678 000:487.388 JLINK_Halt()
T1678 000:487.397 - 0.013ms returns 0x00
T1678 000:487.407 JLINK_IsHalted()
T1678 000:487.415 - 0.012ms returns TRUE
T1678 000:487.425 JLINK_ReadMemU32(0xE000EDF0, 0x1 Items)
T1678 000:487.447   CPU_ReadMem(4 bytes @ 0xE000EDF0)
T1678 000:487.778   Data:  03 00 03 00
T1678 000:487.793   Debug reg: DHCSR
T1678 000:487.800 - 0.377ms returns 1 (0x1)
T1678 000:487.811 JLINK_WriteU32_64(0xE000EDF0, 0xA05F0003)
T1678 000:487.817   Debug reg: DHCSR
T1678 000:488.054   CPU_WriteMem(4 bytes @ 0xE000EDF0)
T1678 000:488.459 - 0.659ms returns 0 (0x00000000)
T1678 000:488.481 JLINK_WriteU32_64(0xE000EDFC, 0x01000000)
T1678 000:488.491   Debug reg: DEMCR
T1678 000:488.514   CPU_WriteMem(4 bytes @ 0xE000EDFC)
T1678 000:488.934 - 0.457ms returns 0 (0x00000000)
T1678 000:499.988 JLINK_GetHWStatus(...)
T1678 000:500.428 - 0.452ms returns 0
T1678 000:509.043 JLINK_GetNumBPUnits(Type = 0xFFFFFF00)
T1678 000:509.062 - 0.021ms returns 0x06
T1678 000:509.068 JLINK_GetNumBPUnits(Type = 0xF0)
T1678 000:509.074 - 0.007ms returns 0x2000
T1678 000:509.080 JLINK_GetNumWPUnits()
T1678 000:509.085 - 0.007ms returns 4
T1678 000:517.281 JLINK_GetSpeed()
T1678 000:517.305 - 0.027ms returns 4000
T1678 000:525.754 JLINK_ReadMemU32(0xE000E004, 0x1 Items)
T1678 000:525.808   CPU_ReadMem(4 bytes @ 0xE000E004)
T1678 000:526.145   Data:  01 00 00 00
T1678 000:526.158 - 0.408ms returns 1 (0x1)
T1678 000:526.173 JLINK_ReadMemU32(0xE000E004, 0x1 Items)
T1678 000:526.185   CPU_ReadMem(4 bytes @ 0xE000E004)
T1678 000:526.602   Data:  01 00 00 00
T1678 000:526.617 - 0.447ms returns 1 (0x1)
T1678 000:526.625 JLINK_WriteMem(0xE0001000, 0x1C Bytes, ...)
T1678 000:526.631   Data:  01 00 00 00 00 00 00 00 00 00 00 00 00 00 00 00 ...
T1678 000:526.644   CPU_WriteMem(28 bytes @ 0xE0001000)
T1678 000:527.150 - 0.528ms returns 0x1C
T1678 000:527.158 JLINK_ReadMem(0xE0001000, 0x1C Bytes, ...)
T1678 000:527.165   CPU_ReadMem(28 bytes @ 0xE0001000)
T1678 000:527.796   Data:  01 00 00 40 00 00 00 00 00 00 00 00 00 00 00 00 ...
T1678 000:527.804 - 0.650ms returns 0
T1678 000:527.818 JLINK_Halt()
T1678 000:527.824 - 0.007ms returns 0x00
T1678 000:527.830 JLINK_IsHalted()
T1678 000:527.836 - 0.008ms returns TRUE
T1678 000:537.790 JLINK_WriteMem(0x20000000, 0x5B8 Bytes, ...)
T1678 000:537.810   Data:  00 BE 0A E0 0D 78 2D 06 68 40 08 24 40 00 00 D3 ...
T1678 000:538.102   CPU_WriteMem(1464 bytes @ 0x20000000)
T1678 000:543.010 - 5.231ms returns 0x5B8
T1678 000:543.070 JLINK_HasError()
T1678 000:543.083 JLINK_WriteReg(R0, 0x00000000)
T1678 000:543.100 - 0.021ms returns 0
T1678 000:543.110 JLINK_WriteReg(R1, 0x03D09000)
T1678 000:543.118 - 0.012ms returns 0
T1678 000:543.128 JLINK_WriteReg(R2, 0x00000001)
T1678 000:543.140 - 0.015ms returns 0
T1678 000:543.149 JLINK_WriteReg(R3, 0x00000000)
T1678 000:543.156 - 0.013ms returns 0
T1678 000:543.170 JLINK_WriteReg(R4, 0x00000000)
T1678 000:543.178 - 0.011ms returns 0
T1678 000:543.186 JLINK_WriteReg(R5, 0x00000000)
T1678 000:543.194 - 0.012ms returns 0
T1678 000:543.205 JLINK_WriteReg(R6, 0x00000000)
T1678 000:543.213 - 0.011ms returns 0
T1678 000:543.221 JLINK_WriteReg(R7, 0x00000000)
T1678 000:543.229 - 0.011ms returns 0
T1678 000:543.237 JLINK_WriteReg(R8, 0x00000000)
T1678 000:543.249 - 0.014ms returns 0
T1678 000:543.257 JLINK_WriteReg(R9, 0x200005B4)
T1678 000:543.265 - 0.011ms returns 0
T1678 000:543.274 JLINK_WriteReg(R10, 0x00000000)
T1678 000:543.282 - 0.011ms returns 0
T1678 000:543.290 JLINK_WriteReg(R11, 0x00000000)
T1678 000:543.298 - 0.011ms returns 0
T1678 000:543.307 JLINK_WriteReg(R12, 0x00000000)
T1678 000:543.314 - 0.011ms returns 0
T1678 000:543.323 JLINK_WriteReg(R13 (SP), 0x20002000)
T1678 000:543.332 - 0.012ms returns 0
T1678 000:543.341 JLINK_WriteReg(R14, 0x20000001)
T1678 000:543.348 - 0.011ms returns 0
T1678 000:543.357 JLINK_WriteReg(R15 (PC), 0x20000020)
T1678 000:543.367 - 0.013ms returns 0
T1678 000:543.376 JLINK_WriteReg(XPSR, 0x01000000)
T1678 000:543.386 - 0.013ms returns 0
T1678 000:543.395 JLINK_WriteReg(MSP, 0x20002000)
T1678 000:543.402 - 0.011ms returns 0
T1678 000:543.411 JLINK_WriteReg(PSP, 0x20002000)
T1678 000:543.419 - 0.011ms returns 0
T1678 000:543.427 JLINK_WriteReg(CFBP, 0x00000000)
T1678 000:543.435 - 0.011ms returns 0
T1678 000:543.444 JLINK_SetBPEx(Addr = 0x20000000, Type = 0xFFFFFFF2)
T1678 000:543.457   CPU_ReadMem(2 bytes @ 0x20000000)
T1678 000:543.836 - 0.398ms returns 0x00000001
T1678 000:543.849 JLINK_Go()
T1678 000:543.860   CPU_WriteMem(2 bytes @ 0x20000000)
T1678 000:544.336   CPU_ReadMem(4 bytes @ 0xE0001000)
T1678 000:544.831   CPU_WriteMem(4 bytes @ 0xE0002008)
T1678 000:544.840   CPU_WriteMem(4 bytes @ 0xE000200C)
T1678 000:544.847   CPU_WriteMem(4 bytes @ 0xE0002010)
T1678 000:544.855   CPU_WriteMem(4 bytes @ 0xE0002014)
T1678 000:544.862   CPU_WriteMem(4 bytes @ 0xE0002018)
T1678 000:544.869   CPU_WriteMem(4 bytes @ 0xE000201C)
T1678 000:546.218   CPU_WriteMem(4 bytes @ 0xE0001004)
T1678 000:548.918 - 5.081ms
T1678 000:548.941 JLINK_IsHalted()
T1678 000:551.249   CPU_ReadMem(2 bytes @ 0x20000000)
T1678 000:551.726 - 2.789ms returns TRUE
T1678 000:551.736 JLINK_ReadReg(R15 (PC))
T1678 000:551.744 - 0.010ms returns 0x20000000
T1678 000:551.750 JLINK_ClrBPEx(BPHandle = 0x00000001)
T1678 000:551.758 - 0.010ms returns 0x00
T1678 000:551.765 JLINK_ReadReg(R0)
T1678 000:551.770 - 0.007ms returns 0x00000000
T1678 000:552.352 JLINK_HasError()
T1678 000:552.364 JLINK_WriteReg(R0, 0x00026000)
T1678 000:552.372 - 0.010ms returns 0
T1678 000:552.378 JLINK_WriteReg(R1, 0x00001000)
T1678 000:552.384 - 0.058ms returns 0
T1678 000:552.442 JLINK_WriteReg(R2, 0x000000FF)
T1678 000:552.448 - 0.008ms returns 0
T1678 000:552.454 JLINK_WriteReg(R3, 0x00000000)
T1678 000:552.459 - 0.007ms returns 0
T1678 000:552.465 JLINK_WriteReg(R4, 0x00000000)
T1678 000:552.470 - 0.007ms returns 0
T1678 000:552.476 JLINK_WriteReg(R5, 0x00000000)
T1678 000:552.481 - 0.007ms returns 0
T1678 000:552.487 JLINK_WriteReg(R6, 0x00000000)
T1678 000:552.493 - 0.007ms returns 0
T1678 000:552.498 JLINK_WriteReg(R7, 0x00000000)
T1678 000:552.504 - 0.007ms returns 0
T1678 000:552.510 JLINK_WriteReg(R8, 0x00000000)
T1678 000:552.515 - 0.007ms returns 0
T1678 000:552.521 JLINK_WriteReg(R9, 0x200005B4)
T1678 000:552.526 - 0.007ms returns 0
T1678 000:552.532 JLINK_WriteReg(R10, 0x00000000)
T1678 000:552.537 - 0.007ms returns 0
T1678 000:552.543 JLINK_WriteReg(R11, 0x00000000)
T1678 000:552.548 - 0.007ms returns 0
T1678 000:552.554 JLINK_WriteReg(R12, 0x00000000)
T1678 000:552.559 - 0.007ms returns 0
T1678 000:552.565 JLINK_WriteReg(R13 (SP), 0x20002000)
T1678 000:552.571 - 0.008ms returns 0
T1678 000:552.577 JLINK_WriteReg(R14, 0x20000001)
T1678 000:552.582 - 0.007ms returns 0
T1678 000:552.588 JLINK_WriteReg(R15 (PC), 0x20000288)
T1678 000:552.593 - 0.007ms returns 0
T1678 000:552.599 JLINK_WriteReg(XPSR, 0x01000000)
T1678 000:552.604 - 0.007ms returns 0
T1678 000:552.610 JLINK_WriteReg(MSP, 0x20002000)
T1678 000:552.615 - 0.007ms returns 0
T1678 000:552.621 JLINK_WriteReg(PSP, 0x20002000)
T1678 000:552.626 - 0.007ms returns 0
T1678 000:552.632 JLINK_WriteReg(CFBP, 0x00000000)
T1678 000:552.637 - 0.007ms returns 0
T1678 000:552.643 JLINK_SetBPEx(Addr = 0x20000000, Type = 0xFFFFFFF2)
T1678 000:552.650 - 0.008ms returns 0x00000002
T1678 000:552.656 JLINK_Go()
T1678 000:552.668   CPU_ReadMem(4 bytes @ 0xE0001000)
T1678 000:555.250 - 2.604ms
T1678 000:555.270 JLINK_IsHalted()
T1678 000:558.068   CPU_ReadMem(2 bytes @ 0x20000000)
T1678 000:558.545 - 3.280ms returns TRUE
T1678 000:558.559 JLINK_ReadReg(R15 (PC))
T1678 000:558.570 - 0.014ms returns 0x20000000
T1678 000:558.579 JLINK_ClrBPEx(BPHandle = 0x00000002)
T1678 000:558.587 - 0.011ms returns 0x00
T1678 000:558.596 JLINK_ReadReg(R0)
T1678 000:558.604 - 0.011ms returns 0x00000001
T1678 000:558.614 JLINK_HasError()
T1678 000:558.623 JLINK_WriteReg(R0, 0x00026000)
T1678 000:558.631 - 0.011ms returns 0
T1678 000:558.640 JLINK_WriteReg(R1, 0x00001000)
T1678 000:558.648 - 0.011ms returns 0
T1678 000:558.657 JLINK_WriteReg(R2, 0x000000FF)
T1678 000:558.664 - 0.011ms returns 0
T1678 000:558.673 JLINK_WriteReg(R3, 0x00000000)
T1678 000:558.681 - 0.011ms returns 0
T1678 000:558.689 JLINK_WriteReg(R4, 0x00000000)
T1678 000:558.697 - 0.011ms returns 0
T1678 000:558.706 JLINK_WriteReg(R5, 0x00000000)
T1678 000:558.713 - 0.011ms returns 0
T1678 000:558.722 JLINK_WriteReg(R6, 0x00000000)
T1678 000:558.730 - 0.011ms returns 0
T1678 000:558.738 JLINK_WriteReg(R7, 0x00000000)
T1678 000:558.746 - 0.011ms returns 0
T1678 000:558.755 JLINK_WriteReg(R8, 0x00000000)
T1678 000:558.763 - 0.011ms returns 0
T1678 000:558.771 JLINK_WriteReg(R9, 0x200005B4)
T1678 000:558.779 - 0.011ms returns 0
T1678 000:558.788 JLINK_WriteReg(R10, 0x00000000)
T1678 000:558.795 - 0.011ms returns 0
T1678 000:558.804 JLINK_WriteReg(R11, 0x00000000)
T1678 000:558.812 - 0.011ms returns 0
T1678 000:558.821 JLINK_WriteReg(R12, 0x00000000)
T1678 000:558.828 - 0.011ms returns 0
T1678 000:558.837 JLINK_WriteReg(R13 (SP), 0x20002000)
T1678 000:558.845 - 0.011ms returns 0
T1678 000:558.854 JLINK_WriteReg(R14, 0x20000001)
T1678 000:558.862 - 0.011ms returns 0
T1678 000:558.870 JLINK_WriteReg(R15 (PC), 0x200000D4)
T1678 000:558.878 - 0.011ms returns 0
T1678 000:558.887 JLINK_WriteReg(XPSR, 0x01000000)
T1678 000:558.895 - 0.013ms returns 0
T1678 000:558.906 JLINK_WriteReg(MSP, 0x20002000)
T1678 000:558.915 - 0.012ms returns 0
T1678 000:558.924 JLINK_WriteReg(PSP, 0x20002000)
T1678 000:558.931 - 0.011ms returns 0
T1678 000:558.940 JLINK_WriteReg(CFBP, 0x00000000)
T1678 000:558.950 - 0.015ms returns 0
T1678 000:558.961 JLINK_SetBPEx(Addr = 0x20000000, Type = 0xFFFFFFF2)
T1678 000:558.970 - 0.012ms returns 0x00000003
T1678 000:558.979 JLINK_Go()
T1678 000:558.993   CPU_ReadMem(4 bytes @ 0xE0001000)
T1678 000:561.619 - 2.652ms
T1678 000:561.640 JLINK_IsHalted()
T1678 000:562.119 - 0.491ms returns FALSE
T1678 000:562.140 JLINK_HasError()
T1678 000:587.992 JLINK_IsHalted()
T1678 000:590.177   CPU_ReadMem(2 bytes @ 0x20000000)
T1678 000:590.657 - 2.678ms returns TRUE
T1678 000:590.680 JLINK_ReadReg(R15 (PC))
T1678 000:590.693 - 0.016ms returns 0x20000000
T1678 000:590.702 JLINK_ClrBPEx(BPHandle = 0x00000003)
T1678 000:590.712 - 0.012ms returns 0x00
T1678 000:590.721 JLINK_ReadReg(R0)
T1678 000:590.729 - 0.011ms returns 0x00000000
T1678 000:591.563 JLINK_HasError()
T1678 000:591.580 JLINK_WriteReg(R0, 0x00027000)
T1678 000:591.592 - 0.015ms returns 0
T1678 000:591.602 JLINK_WriteReg(R1, 0x00001000)
T1678 000:591.611 - 0.012ms returns 0
T1678 000:591.620 JLINK_WriteReg(R2, 0x000000FF)
T1678 000:591.628 - 0.011ms returns 0
T1678 000:591.638 JLINK_WriteReg(R3, 0x00000000)
T1678 000:591.646 - 0.011ms returns 0
T1678 000:591.655 JLINK_WriteReg(R4, 0x00000000)
T1678 000:591.663 - 0.011ms returns 0
T1678 000:591.672 JLINK_WriteReg(R5, 0x00000000)
T1678 000:591.680 - 0.011ms returns 0
T1678 000:591.689 JLINK_WriteReg(R6, 0x00000000)
T1678 000:591.697 - 0.011ms returns 0
T1678 000:591.706 JLINK_WriteReg(R7, 0x00000000)
T1678 000:591.714 - 0.011ms returns 0
T1678 000:591.724 JLINK_WriteReg(R8, 0x00000000)
T1678 000:591.731 - 0.011ms returns 0
T1678 000:591.741 JLINK_WriteReg(R9, 0x200005B4)
T1678 000:591.749 - 0.011ms returns 0
T1678 000:591.758 JLINK_WriteReg(R10, 0x00000000)
T1678 000:591.766 - 0.011ms returns 0
T1678 000:591.775 JLINK_WriteReg(R11, 0x00000000)
T1678 000:591.783 - 0.011ms returns 0
T1678 000:591.792 JLINK_WriteReg(R12, 0x00000000)
T1678 000:591.800 - 0.011ms returns 0
T1678 000:591.809 JLINK_WriteReg(R13 (SP), 0x20002000)
T1678 000:591.818 - 0.012ms returns 0
T1678 000:591.827 JLINK_WriteReg(R14, 0x20000001)
T1678 000:591.835 - 0.012ms returns 0
T1678 000:591.844 JLINK_WriteReg(R15 (PC), 0x20000288)
T1678 000:591.852 - 0.011ms returns 0
T1678 000:591.862 JLINK_WriteReg(XPSR, 0x01000000)
T1678 000:591.870 - 0.012ms returns 0
T1678 000:591.879 JLINK_WriteReg(MSP, 0x20002000)
T1678 000:591.887 - 0.011ms returns 0
T1678 000:591.896 JLINK_WriteReg(PSP, 0x20002000)
T1678 000:591.904 - 0.011ms returns 0
T1678 000:591.913 JLINK_WriteReg(CFBP, 0x00000000)
T1678 000:591.921 - 0.011ms returns 0
T1678 000:591.931 JLINK_SetBPEx(Addr = 0x20000000, Type = 0xFFFFFFF2)
T1678 000:591.940 - 0.013ms returns 0x00000004
T1678 000:591.950 JLINK_Go()
T1678 000:591.968   CPU_ReadMem(4 bytes @ 0xE0001000)
T1678 000:594.468 - 2.524ms
T1678 000:594.484 JLINK_IsHalted()
T1678 000:596.860   CPU_ReadMem(2 bytes @ 0x20000000)
T1678 000:597.335 - 2.856ms returns TRUE
T1678 000:597.348 JLINK_ReadReg(R15 (PC))
T1678 000:597.355 - 0.009ms returns 0x20000000
T1678 000:597.361 JLINK_ClrBPEx(BPHandle = 0x00000004)
T1678 000:597.366 - 0.007ms returns 0x00
T1678 000:597.372 JLINK_ReadReg(R0)
T1678 000:597.377 - 0.007ms returns 0x00000001
T1678 000:597.384 JLINK_HasError()
T1678 000:597.390 JLINK_WriteReg(R0, 0x00027000)
T1678 000:597.396 - 0.007ms returns 0
T1678 000:597.403 JLINK_WriteReg(R1, 0x00001000)
T1678 000:597.408 - 0.007ms returns 0
T1678 000:597.414 JLINK_WriteReg(R2, 0x000000FF)
T1678 000:597.422 - 0.009ms returns 0
T1678 000:597.429 JLINK_WriteReg(R3, 0x00000000)
T1678 000:597.434 - 0.007ms returns 0
T1678 000:597.440 JLINK_WriteReg(R4, 0x00000000)
T1678 000:597.445 - 0.008ms returns 0
T1678 000:597.453 JLINK_WriteReg(R5, 0x00000000)
T1678 000:597.460 - 0.009ms returns 0
T1678 000:597.467 JLINK_WriteReg(R6, 0x00000000)
T1678 000:597.472 - 0.007ms returns 0
T1678 000:597.478 JLINK_WriteReg(R7, 0x00000000)
T1678 000:597.483 - 0.007ms returns 0
T1678 000:597.489 JLINK_WriteReg(R8, 0x00000000)
T1678 000:597.494 - 0.007ms returns 0
T1678 000:597.504 JLINK_WriteReg(R9, 0x200005B4)
T1678 000:597.511 - 0.009ms returns 0
T1678 000:597.518 JLINK_WriteReg(R10, 0x00000000)
T1678 000:597.523 - 0.007ms returns 0
T1678 000:597.566 JLINK_WriteReg(R11, 0x00000000)
T1678 000:597.588 - 0.026ms returns 0
T1678 000:597.600 JLINK_WriteReg(R12, 0x00000000)
T1678 000:597.609 - 0.013ms returns 0
T1678 000:597.619 JLINK_WriteReg(R13 (SP), 0x20002000)
T1678 000:597.628 - 0.012ms returns 0
T1678 000:597.637 JLINK_WriteReg(R14, 0x20000001)
T1678 000:597.646 - 0.012ms returns 0
T1678 000:597.655 JLINK_WriteReg(R15 (PC), 0x200000D4)
T1678 000:597.663 - 0.012ms returns 0
T1678 000:597.673 JLINK_WriteReg(XPSR, 0x01000000)
T1678 000:597.681 - 0.012ms returns 0
T1678 000:597.690 JLINK_WriteReg(MSP, 0x20002000)
T1678 000:597.701 - 0.014ms returns 0
T1678 000:597.710 JLINK_WriteReg(PSP, 0x20002000)
T1678 000:597.718 - 0.011ms returns 0
T1678 000:597.727 JLINK_WriteReg(CFBP, 0x00000000)
T1678 000:597.735 - 0.011ms returns 0
T1678 000:597.745 JLINK_SetBPEx(Addr = 0x20000000, Type = 0xFFFFFFF2)
T1678 000:597.754 - 0.013ms returns 0x00000005
T1678 000:597.764 JLINK_Go()
T1678 000:597.787   CPU_ReadMem(4 bytes @ 0xE0001000)
T1678 000:600.462 - 2.709ms
T1678 000:600.482 JLINK_IsHalted()
T1678 000:601.047 - 0.576ms returns FALSE
T1678 000:601.068 JLINK_HasError()
T1678 000:610.378 JLINK_IsHalted()
T1678 000:612.956   CPU_ReadMem(2 bytes @ 0x20000000)
T1678 000:613.338 - 2.967ms returns TRUE
T1678 000:613.356 JLINK_ReadReg(R15 (PC))
T1678 000:613.369 - 0.016ms returns 0x20000000
T1678 000:613.379 JLINK_ClrBPEx(BPHandle = 0x00000005)
T1678 000:613.389 - 0.014ms returns 0x00
T1678 000:613.399 JLINK_ReadReg(R0)
T1678 000:613.407 - 0.012ms returns 0x00000000
T1678 000:614.314 JLINK_HasError()
T1678 000:614.331 JLINK_WriteReg(R0, 0x00028000)
T1678 000:614.343 - 0.015ms returns 0
T1678 000:614.352 JLINK_WriteReg(R1, 0x00001000)
T1678 000:614.361 - 0.012ms returns 0
T1678 000:614.370 JLINK_WriteReg(R2, 0x000000FF)
T1678 000:614.378 - 0.012ms returns 0
T1678 000:614.388 JLINK_WriteReg(R3, 0x00000000)
T1678 000:614.395 - 0.011ms returns 0
T1678 000:614.405 JLINK_WriteReg(R4, 0x00000000)
T1678 000:614.412 - 0.011ms returns 0
T1678 000:614.421 JLINK_WriteReg(R5, 0x00000000)
T1678 000:614.429 - 0.011ms returns 0
T1678 000:614.438 JLINK_WriteReg(R6, 0x00000000)
T1678 000:614.446 - 0.011ms returns 0
T1678 000:614.455 JLINK_WriteReg(R7, 0x00000000)
T1678 000:614.463 - 0.011ms returns 0
T1678 000:614.472 JLINK_WriteReg(R8, 0x00000000)
T1678 000:614.480 - 0.011ms returns 0
T1678 000:614.489 JLINK_WriteReg(R9, 0x200005B4)
T1678 000:614.497 - 0.011ms returns 0
T1678 000:614.506 JLINK_WriteReg(R10, 0x00000000)
T1678 000:614.514 - 0.011ms returns 0
T1678 000:614.523 JLINK_WriteReg(R11, 0x00000000)
T1678 000:614.531 - 0.011ms returns 0
T1678 000:614.540 JLINK_WriteReg(R12, 0x00000000)
T1678 000:614.548 - 0.011ms returns 0
T1678 000:614.557 JLINK_WriteReg(R13 (SP), 0x20002000)
T1678 000:614.566 - 0.012ms returns 0
T1678 000:614.575 JLINK_WriteReg(R14, 0x20000001)
T1678 000:614.583 - 0.011ms returns 0
T1678 000:614.592 JLINK_WriteReg(R15 (PC), 0x20000288)
T1678 000:614.600 - 0.011ms returns 0
T1678 000:614.609 JLINK_WriteReg(XPSR, 0x01000000)
T1678 000:614.617 - 0.011ms returns 0
T1678 000:614.626 JLINK_WriteReg(MSP, 0x20002000)
T1678 000:614.634 - 0.011ms returns 0
T1678 000:614.643 JLINK_WriteReg(PSP, 0x20002000)
T1678 000:614.651 - 0.011ms returns 0
T1678 000:614.660 JLINK_WriteReg(CFBP, 0x00000000)
T1678 000:614.668 - 0.011ms returns 0
T1678 000:614.677 JLINK_SetBPEx(Addr = 0x20000000, Type = 0xFFFFFFF2)
T1678 000:614.686 - 0.013ms returns 0x00000006
T1678 000:614.696 JLINK_Go()
T1678 000:614.714   CPU_ReadMem(4 bytes @ 0xE0001000)
T1678 000:617.455 - 2.770ms
T1678 000:617.476 JLINK_IsHalted()
T1678 000:619.872   CPU_ReadMem(2 bytes @ 0x20000000)
T1678 000:620.362 - 2.895ms returns TRUE
T1678 000:620.380 JLINK_ReadReg(R15 (PC))
T1678 000:620.392 - 0.015ms returns 0x20000000
T1678 000:620.401 JLINK_ClrBPEx(BPHandle = 0x00000006)
T1678 000:620.413 - 0.018ms returns 0x00
T1678 000:620.426 JLINK_ReadReg(R0)
T1678 000:620.434 - 0.011ms returns 0x00000001
T1678 000:620.443 JLINK_HasError()
T1678 000:620.452 JLINK_WriteReg(R0, 0x00028000)
T1678 000:620.461 - 0.012ms returns 0
T1678 000:620.470 JLINK_WriteReg(R1, 0x00001000)
T1678 000:620.477 - 0.011ms returns 0
T1678 000:620.486 JLINK_WriteReg(R2, 0x000000FF)
T1678 000:620.494 - 0.011ms returns 0
T1678 000:620.503 JLINK_WriteReg(R3, 0x00000000)
T1678 000:620.510 - 0.013ms returns 0
T1678 000:620.521 JLINK_WriteReg(R4, 0x00000000)
T1678 000:620.529 - 0.011ms returns 0
T1678 000:620.538 JLINK_WriteReg(R5, 0x00000000)
T1678 000:620.545 - 0.011ms returns 0
T1678 000:620.554 JLINK_WriteReg(R6, 0x00000000)
T1678 000:620.561 - 0.011ms returns 0
T1678 000:620.570 JLINK_WriteReg(R7, 0x00000000)
T1678 000:620.578 - 0.011ms returns 0
T1678 000:620.587 JLINK_WriteReg(R8, 0x00000000)
T1678 000:620.594 - 0.011ms returns 0
T1678 000:620.603 JLINK_WriteReg(R9, 0x200005B4)
T1678 000:620.610 - 0.011ms returns 0
T1678 000:620.619 JLINK_WriteReg(R10, 0x00000000)
T1678 000:620.627 - 0.011ms returns 0
T1678 000:620.636 JLINK_WriteReg(R11, 0x00000000)
T1678 000:620.643 - 0.011ms returns 0
T1678 000:620.652 JLINK_WriteReg(R12, 0x00000000)
T1678 000:620.659 - 0.011ms returns 0
T1678 000:620.668 JLINK_WriteReg(R13 (SP), 0x20002000)
T1678 000:620.676 - 0.011ms returns 0
T1678 000:620.685 JLINK_WriteReg(R14, 0x20000001)
T1678 000:620.693 - 0.011ms returns 0
T1678 000:620.701 JLINK_WriteReg(R15 (PC), 0x200000D4)
T1678 000:620.709 - 0.011ms returns 0
T1678 000:620.718 JLINK_WriteReg(XPSR, 0x01000000)
T1678 000:620.725 - 0.011ms returns 0
T1678 000:620.734 JLINK_WriteReg(MSP, 0x20002000)
T1678 000:620.742 - 0.011ms returns 0
T1678 000:620.750 JLINK_WriteReg(PSP, 0x20002000)
T1678 000:620.758 - 0.011ms returns 0
T1678 000:620.767 JLINK_WriteReg(CFBP, 0x00000000)
T1678 000:620.774 - 0.011ms returns 0
T1678 000:620.783 JLINK_SetBPEx(Addr = 0x20000000, Type = 0xFFFFFFF2)
T1678 000:620.791 - 0.011ms returns 0x00000007
T1678 000:620.800 JLINK_Go()
T1678 000:620.815   CPU_ReadMem(4 bytes @ 0xE0001000)
T1678 000:623.481 - 2.688ms
T1678 000:623.495 JLINK_IsHalted()
T1678 000:624.027 - 0.535ms returns FALSE
T1678 000:624.036 JLINK_HasError()
T1678 000:631.372 JLINK_IsHalted()
T1678 000:633.522   CPU_ReadMem(2 bytes @ 0x20000000)
T1678 000:634.033 - 2.673ms returns TRUE
T1678 000:634.056 JLINK_ReadReg(R15 (PC))
T1678 000:634.067 - 0.015ms returns 0x20000000
T1678 000:634.077 JLINK_ClrBPEx(BPHandle = 0x00000007)
T1678 000:634.085 - 0.012ms returns 0x00
T1678 000:634.095 JLINK_ReadReg(R0)
T1678 000:634.103 - 0.011ms returns 0x00000000
T1678 000:634.949 JLINK_HasError()
T1678 000:634.967 JLINK_WriteReg(R0, 0x00029000)
T1678 000:634.978 - 0.015ms returns 0
T1678 000:634.988 JLINK_WriteReg(R1, 0x00001000)
T1678 000:634.996 - 0.012ms returns 0
T1678 000:635.005 JLINK_WriteReg(R2, 0x000000FF)
T1678 000:635.013 - 0.011ms returns 0
T1678 000:635.021 JLINK_WriteReg(R3, 0x00000000)
T1678 000:635.029 - 0.011ms returns 0
T1678 000:635.038 JLINK_WriteReg(R4, 0x00000000)
T1678 000:635.046 - 0.011ms returns 0
T1678 000:635.055 JLINK_WriteReg(R5, 0x00000000)
T1678 000:635.066 - 0.014ms returns 0
T1678 000:635.075 JLINK_WriteReg(R6, 0x00000000)
T1678 000:635.082 - 0.011ms returns 0
T1678 000:635.091 JLINK_WriteReg(R7, 0x00000000)
T1678 000:635.099 - 0.011ms returns 0
T1678 000:635.108 JLINK_WriteReg(R8, 0x00000000)
T1678 000:635.115 - 0.011ms returns 0
T1678 000:635.124 JLINK_WriteReg(R9, 0x200005B4)
T1678 000:635.132 - 0.011ms returns 0
T1678 000:635.141 JLINK_WriteReg(R10, 0x00000000)
T1678 000:635.148 - 0.011ms returns 0
T1678 000:635.157 JLINK_WriteReg(R11, 0x00000000)
T1678 000:635.165 - 0.011ms returns 0
T1678 000:635.173 JLINK_WriteReg(R12, 0x00000000)
T1678 000:635.181 - 0.011ms returns 0
T1678 000:635.190 JLINK_WriteReg(R13 (SP), 0x20002000)
T1678 000:635.199 - 0.012ms returns 0
T1678 000:635.207 JLINK_WriteReg(R14, 0x20000001)
T1678 000:635.215 - 0.086ms returns 0
T1678 000:635.303 JLINK_WriteReg(R15 (PC), 0x20000288)
T1678 000:635.312 - 0.012ms returns 0
T1678 000:635.320 JLINK_WriteReg(XPSR, 0x01000000)
T1678 000:635.328 - 0.011ms returns 0
T1678 000:635.337 JLINK_WriteReg(MSP, 0x20002000)
T1678 000:635.345 - 0.011ms returns 0
T1678 000:635.354 JLINK_WriteReg(PSP, 0x20002000)
T1678 000:635.361 - 0.011ms returns 0
T1678 000:635.370 JLINK_WriteReg(CFBP, 0x00000000)
T1678 000:635.378 - 0.011ms returns 0
T1678 000:635.385 JLINK_SetBPEx(Addr = 0x20000000, Type = 0xFFFFFFF2)
T1678 000:635.391 - 0.008ms returns 0x00000008
T1678 000:635.397 JLINK_Go()
T1678 000:635.409   CPU_ReadMem(4 bytes @ 0xE0001000)
T1678 000:638.114 - 2.728ms
T1678 000:638.134 JLINK_IsHalted()
T1678 000:640.441   CPU_ReadMem(2 bytes @ 0x20000000)
T1678 000:640.932 - 2.810ms returns TRUE
T1678 000:640.956 JLINK_ReadReg(R15 (PC))
T1678 000:640.968 - 0.016ms returns 0x20000000
T1678 000:640.978 JLINK_ClrBPEx(BPHandle = 0x00000008)
T1678 000:640.987 - 0.013ms returns 0x00
T1678 000:640.996 JLINK_ReadReg(R0)
T1678 000:641.005 - 0.012ms returns 0x00000001
T1678 000:641.015 JLINK_HasError()
T1678 000:641.024 JLINK_WriteReg(R0, 0x00029000)
T1678 000:641.033 - 0.012ms returns 0
T1678 000:641.042 JLINK_WriteReg(R1, 0x00001000)
T1678 000:641.050 - 0.011ms returns 0
T1678 000:641.059 JLINK_WriteReg(R2, 0x000000FF)
T1678 000:641.067 - 0.011ms returns 0
T1678 000:641.076 JLINK_WriteReg(R3, 0x00000000)
T1678 000:641.083 - 0.011ms returns 0
T1678 000:641.092 JLINK_WriteReg(R4, 0x00000000)
T1678 000:641.100 - 0.011ms returns 0
T1678 000:641.109 JLINK_WriteReg(R5, 0x00000000)
T1678 000:641.116 - 0.011ms returns 0
T1678 000:641.125 JLINK_WriteReg(R6, 0x00000000)
T1678 000:641.133 - 0.011ms returns 0
T1678 000:641.142 JLINK_WriteReg(R7, 0x00000000)
T1678 000:641.149 - 0.011ms returns 0
T1678 000:641.158 JLINK_WriteReg(R8, 0x00000000)
T1678 000:641.166 - 0.011ms returns 0
T1678 000:641.175 JLINK_WriteReg(R9, 0x200005B4)
T1678 000:641.182 - 0.011ms returns 0
T1678 000:641.191 JLINK_WriteReg(R10, 0x00000000)
T1678 000:641.199 - 0.011ms returns 0
T1678 000:641.208 JLINK_WriteReg(R11, 0x00000000)
T1678 000:641.215 - 0.011ms returns 0
T1678 000:641.224 JLINK_WriteReg(R12, 0x00000000)
T1678 000:641.232 - 0.011ms returns 0
T1678 000:641.241 JLINK_WriteReg(R13 (SP), 0x20002000)
T1678 000:641.249 - 0.012ms returns 0
T1678 000:641.258 JLINK_WriteReg(R14, 0x20000001)
T1678 000:641.266 - 0.012ms returns 0
T1678 000:641.275 JLINK_WriteReg(R15 (PC), 0x200000D4)
T1678 000:641.283 - 0.011ms returns 0
T1678 000:641.292 JLINK_WriteReg(XPSR, 0x01000000)
T1678 000:641.300 - 0.011ms returns 0
T1678 000:641.309 JLINK_WriteReg(MSP, 0x20002000)
T1678 000:641.316 - 0.011ms returns 0
T1678 000:641.325 JLINK_WriteReg(PSP, 0x20002000)
T1678 000:641.333 - 0.011ms returns 0
T1678 000:641.342 JLINK_WriteReg(CFBP, 0x00000000)
T1678 000:641.349 - 0.011ms returns 0
T1678 000:641.358 JLINK_SetBPEx(Addr = 0x20000000, Type = 0xFFFFFFF2)
T1678 000:641.366 - 0.012ms returns 0x00000009
T1678 000:641.375 JLINK_Go()
T1678 000:641.391   CPU_ReadMem(4 bytes @ 0xE0001000)
T1678 000:644.057 - 2.691ms
T1678 000:644.074 JLINK_IsHalted()
T1678 000:644.551 - 0.493ms returns FALSE
T1678 000:644.574 JLINK_HasError()
T1678 000:648.972 JLINK_IsHalted()
T1678 000:651.115   CPU_ReadMem(2 bytes @ 0x20000000)
T1678 000:651.605 - 2.641ms returns TRUE
T1678 000:651.624 JLINK_ReadReg(R15 (PC))
T1678 000:651.635 - 0.015ms returns 0x20000000
T1678 000:651.646 JLINK_ClrBPEx(BPHandle = 0x00000009)
T1678 000:651.655 - 0.012ms returns 0x00
T1678 000:651.666 JLINK_ReadReg(R0)
T1678 000:651.674 - 0.012ms returns 0x00000000
T1678 000:652.534 JLINK_HasError()
T1678 000:652.550 JLINK_WriteReg(R0, 0x0002A000)
T1678 000:652.561 - 0.015ms returns 0
T1678 000:652.571 JLINK_WriteReg(R1, 0x00001000)
T1678 000:652.579 - 0.011ms returns 0
T1678 000:652.588 JLINK_WriteReg(R2, 0x000000FF)
T1678 000:652.596 - 0.011ms returns 0
T1678 000:652.605 JLINK_WriteReg(R3, 0x00000000)
T1678 000:652.612 - 0.011ms returns 0
T1678 000:652.624 JLINK_WriteReg(R4, 0x00000000)
T1678 000:652.635 - 0.013ms returns 0
T1678 000:652.644 JLINK_WriteReg(R5, 0x00000000)
T1678 000:652.651 - 0.011ms returns 0
T1678 000:652.660 JLINK_WriteReg(R6, 0x00000000)
T1678 000:652.668 - 0.011ms returns 0
T1678 000:652.677 JLINK_WriteReg(R7, 0x00000000)
T1678 000:652.684 - 0.011ms returns 0
T1678 000:652.693 JLINK_WriteReg(R8, 0x00000000)
T1678 000:652.701 - 0.011ms returns 0
T1678 000:652.710 JLINK_WriteReg(R9, 0x200005B4)
T1678 000:652.718 - 0.011ms returns 0
T1678 000:652.727 JLINK_WriteReg(R10, 0x00000000)
T1678 000:652.735 - 0.011ms returns 0
T1678 000:652.743 JLINK_WriteReg(R11, 0x00000000)
T1678 000:652.751 - 0.011ms returns 0
T1678 000:652.760 JLINK_WriteReg(R12, 0x00000000)
T1678 000:652.768 - 0.011ms returns 0
T1678 000:652.777 JLINK_WriteReg(R13 (SP), 0x20002000)
T1678 000:652.785 - 0.012ms returns 0
T1678 000:652.794 JLINK_WriteReg(R14, 0x20000001)
T1678 000:652.802 - 0.011ms returns 0
T1678 000:652.811 JLINK_WriteReg(R15 (PC), 0x20000288)
T1678 000:652.819 - 0.011ms returns 0
T1678 000:652.827 JLINK_WriteReg(XPSR, 0x01000000)
T1678 000:652.835 - 0.011ms returns 0
T1678 000:652.844 JLINK_WriteReg(MSP, 0x20002000)
T1678 000:652.852 - 0.011ms returns 0
T1678 000:652.861 JLINK_WriteReg(PSP, 0x20002000)
T1678 000:652.868 - 0.011ms returns 0
T1678 000:652.877 JLINK_WriteReg(CFBP, 0x00000000)
T1678 000:652.885 - 0.011ms returns 0
T1678 000:652.894 JLINK_SetBPEx(Addr = 0x20000000, Type = 0xFFFFFFF2)
T1678 000:652.903 - 0.012ms returns 0x0000000A
T1678 000:652.912 JLINK_Go()
T1678 000:652.929   CPU_ReadMem(4 bytes @ 0xE0001000)
T1678 000:655.621 - 2.721ms
T1678 000:655.642 JLINK_IsHalted()
T1678 000:657.936   CPU_ReadMem(2 bytes @ 0x20000000)
T1678 000:658.437 - 2.799ms returns TRUE
T1678 000:658.449 JLINK_ReadReg(R15 (PC))
T1678 000:658.459 - 0.013ms returns 0x20000000
T1678 000:658.469 JLINK_ClrBPEx(BPHandle = 0x0000000A)
T1678 000:658.477 - 0.012ms returns 0x00
T1678 000:658.486 JLINK_ReadReg(R0)
T1678 000:658.494 - 0.011ms returns 0x00000001
T1678 000:658.503 JLINK_HasError()
T1678 000:658.512 JLINK_WriteReg(R0, 0x0002A000)
T1678 000:658.521 - 0.012ms returns 0
T1678 000:658.530 JLINK_WriteReg(R1, 0x00001000)
T1678 000:658.538 - 0.011ms returns 0
T1678 000:658.547 JLINK_WriteReg(R2, 0x000000FF)
T1678 000:658.554 - 0.011ms returns 0
T1678 000:658.563 JLINK_WriteReg(R3, 0x00000000)
T1678 000:658.571 - 0.011ms returns 0
T1678 000:658.580 JLINK_WriteReg(R4, 0x00000000)
T1678 000:658.587 - 0.011ms returns 0
T1678 000:658.596 JLINK_WriteReg(R5, 0x00000000)
T1678 000:658.603 - 0.011ms returns 0
T1678 000:658.612 JLINK_WriteReg(R6, 0x00000000)
T1678 000:658.620 - 0.011ms returns 0
T1678 000:658.629 JLINK_WriteReg(R7, 0x00000000)
T1678 000:658.636 - 0.011ms returns 0
T1678 000:658.645 JLINK_WriteReg(R8, 0x00000000)
T1678 000:658.653 - 0.011ms returns 0
T1678 000:658.661 JLINK_WriteReg(R9, 0x200005B4)
T1678 000:658.669 - 0.011ms returns 0
T1678 000:658.677 JLINK_WriteReg(R10, 0x00000000)
T1678 000:658.685 - 0.011ms returns 0
T1678 000:658.694 JLINK_WriteReg(R11, 0x00000000)
T1678 000:658.701 - 0.011ms returns 0
T1678 000:658.710 JLINK_WriteReg(R12, 0x00000000)
T1678 000:658.718 - 0.011ms returns 0
T1678 000:658.730 JLINK_WriteReg(R13 (SP), 0x20002000)
T1678 000:658.738 - 0.012ms returns 0
T1678 000:658.750 JLINK_WriteReg(R14, 0x20000001)
T1678 000:658.762 - 0.016ms returns 0
T1678 000:658.771 JLINK_WriteReg(R15 (PC), 0x200000D4)
T1678 000:658.786 - 0.018ms returns 0
T1678 000:658.795 JLINK_WriteReg(XPSR, 0x01000000)
T1678 000:658.803 - 0.011ms returns 0
T1678 000:658.812 JLINK_WriteReg(MSP, 0x20002000)
T1678 000:658.819 - 0.011ms returns 0
T1678 000:658.828 JLINK_WriteReg(PSP, 0x20002000)
T1678 000:658.836 - 0.011ms returns 0
T1678 000:658.845 JLINK_WriteReg(CFBP, 0x00000000)
T1678 000:658.852 - 0.011ms returns 0
T1678 000:658.861 JLINK_SetBPEx(Addr = 0x20000000, Type = 0xFFFFFFF2)
T1678 000:658.870 - 0.012ms returns 0x0000000B
T1678 000:658.879 JLINK_Go()
T1678 000:658.893   CPU_ReadMem(4 bytes @ 0xE0001000)
T1678 000:661.396 - 2.533ms
T1678 000:661.420 JLINK_IsHalted()
T1678 000:661.896 - 0.481ms returns FALSE
T1678 000:661.911 JLINK_HasError()
T1678 000:673.030 JLINK_IsHalted()
T1678 000:675.197   CPU_ReadMem(2 bytes @ 0x20000000)
T1678 000:675.654 - 2.633ms returns TRUE
T1678 000:675.673 JLINK_ReadReg(R15 (PC))
T1678 000:675.686 - 0.016ms returns 0x20000000
T1678 000:675.696 JLINK_ClrBPEx(BPHandle = 0x0000000B)
T1678 000:675.705 - 0.012ms returns 0x00
T1678 000:675.714 JLINK_ReadReg(R0)
T1678 000:675.722 - 0.011ms returns 0x00000000
T1678 000:676.440 JLINK_HasError()
T1678 000:676.451 JLINK_WriteReg(R0, 0x0002B000)
T1678 000:676.458 - 0.009ms returns 0
T1678 000:676.464 JLINK_WriteReg(R1, 0x00001000)
T1678 000:676.469 - 0.007ms returns 0
T1678 000:676.474 JLINK_WriteReg(R2, 0x000000FF)
T1678 000:676.479 - 0.006ms returns 0
T1678 000:676.484 JLINK_WriteReg(R3, 0x00000000)
T1678 000:676.489 - 0.006ms returns 0
T1678 000:676.494 JLINK_WriteReg(R4, 0x00000000)
T1678 000:676.499 - 0.006ms returns 0
T1678 000:676.504 JLINK_WriteReg(R5, 0x00000000)
T1678 000:676.509 - 0.006ms returns 0
T1678 000:676.514 JLINK_WriteReg(R6, 0x00000000)
T1678 000:676.519 - 0.006ms returns 0
T1678 000:676.524 JLINK_WriteReg(R7, 0x00000000)
T1678 000:676.529 - 0.006ms returns 0
T1678 000:676.534 JLINK_WriteReg(R8, 0x00000000)
T1678 000:676.539 - 0.007ms returns 0
T1678 000:676.544 JLINK_WriteReg(R9, 0x200005B4)
T1678 000:676.549 - 0.006ms returns 0
T1678 000:676.554 JLINK_WriteReg(R10, 0x00000000)
T1678 000:676.559 - 0.006ms returns 0
T1678 000:676.564 JLINK_WriteReg(R11, 0x00000000)
T1678 000:676.569 - 0.006ms returns 0
T1678 000:676.574 JLINK_WriteReg(R12, 0x00000000)
T1678 000:676.579 - 0.006ms returns 0
T1678 000:676.584 JLINK_WriteReg(R13 (SP), 0x20002000)
T1678 000:676.589 - 0.007ms returns 0
T1678 000:676.594 JLINK_WriteReg(R14, 0x20000001)
T1678 000:676.599 - 0.006ms returns 0
T1678 000:676.604 JLINK_WriteReg(R15 (PC), 0x20000288)
T1678 000:676.609 - 0.006ms returns 0
T1678 000:676.614 JLINK_WriteReg(XPSR, 0x01000000)
T1678 000:676.619 - 0.007ms returns 0
T1678 000:676.624 JLINK_WriteReg(MSP, 0x20002000)
T1678 000:676.629 - 0.006ms returns 0
T1678 000:676.634 JLINK_WriteReg(PSP, 0x20002000)
T1678 000:676.639 - 0.006ms returns 0
T1678 000:676.644 JLINK_WriteReg(CFBP, 0x00000000)
T1678 000:676.648 - 0.006ms returns 0
T1678 000:676.654 JLINK_SetBPEx(Addr = 0x20000000, Type = 0xFFFFFFF2)
T1678 000:676.660 - 0.007ms returns 0x0000000C
T1678 000:676.665 JLINK_Go()
T1678 000:676.676   CPU_ReadMem(4 bytes @ 0xE0001000)
T1678 000:679.265 - 2.611ms
T1678 000:679.285 JLINK_IsHalted()
T1678 000:681.591   CPU_ReadMem(2 bytes @ 0x20000000)
T1678 000:682.068 - 2.790ms returns TRUE
T1678 000:682.081 JLINK_ReadReg(R15 (PC))
T1678 000:682.088 - 0.009ms returns 0x20000000
T1678 000:682.094 JLINK_ClrBPEx(BPHandle = 0x0000000C)
T1678 000:682.099 - 0.007ms returns 0x00
T1678 000:682.105 JLINK_ReadReg(R0)
T1678 000:682.110 - 0.007ms returns 0x00000001
T1678 000:682.116 JLINK_HasError()
T1678 000:682.122 JLINK_WriteReg(R0, 0x0002B000)
T1678 000:682.127 - 0.007ms returns 0
T1678 000:682.133 JLINK_WriteReg(R1, 0x00001000)
T1678 000:682.137 - 0.007ms returns 0
T1678 000:682.143 JLINK_WriteReg(R2, 0x000000FF)
T1678 000:682.148 - 0.006ms returns 0
T1678 000:682.153 JLINK_WriteReg(R3, 0x00000000)
T1678 000:682.157 - 0.006ms returns 0
T1678 000:682.163 JLINK_WriteReg(R4, 0x00000000)
T1678 000:682.167 - 0.006ms returns 0
T1678 000:682.173 JLINK_WriteReg(R5, 0x00000000)
T1678 000:682.177 - 0.006ms returns 0
T1678 000:682.182 JLINK_WriteReg(R6, 0x00000000)
T1678 000:682.187 - 0.006ms returns 0
T1678 000:682.192 JLINK_WriteReg(R7, 0x00000000)
T1678 000:682.197 - 0.006ms returns 0
T1678 000:682.202 JLINK_WriteReg(R8, 0x00000000)
T1678 000:682.207 - 0.006ms returns 0
T1678 000:682.212 JLINK_WriteReg(R9, 0x200005B4)
T1678 000:682.216 - 0.006ms returns 0
T1678 000:682.222 JLINK_WriteReg(R10, 0x00000000)
T1678 000:682.226 - 0.006ms returns 0
T1678 000:682.232 JLINK_WriteReg(R11, 0x00000000)
T1678 000:682.241 - 0.011ms returns 0
T1678 000:682.246 JLINK_WriteReg(R12, 0x00000000)
T1678 000:682.251 - 0.006ms returns 0
T1678 000:682.256 JLINK_WriteReg(R13 (SP), 0x20002000)
T1678 000:682.261 - 0.007ms returns 0
T1678 000:682.267 JLINK_WriteReg(R14, 0x20000001)
T1678 000:682.271 - 0.007ms returns 0
T1678 000:682.277 JLINK_WriteReg(R15 (PC), 0x200000D4)
T1678 000:682.281 - 0.006ms returns 0
T1678 000:682.287 JLINK_WriteReg(XPSR, 0x01000000)
T1678 000:682.293 - 0.008ms returns 0
T1678 000:682.299 JLINK_WriteReg(MSP, 0x20002000)
T1678 000:682.303 - 0.006ms returns 0
T1678 000:682.308 JLINK_WriteReg(PSP, 0x20002000)
T1678 000:682.313 - 0.006ms returns 0
T1678 000:682.318 JLINK_WriteReg(CFBP, 0x00000000)
T1678 000:682.323 - 0.006ms returns 0
T1678 000:682.328 JLINK_SetBPEx(Addr = 0x20000000, Type = 0xFFFFFFF2)
T1678 000:682.334 - 0.007ms returns 0x0000000D
T1678 000:682.339 JLINK_Go()
T1678 000:682.348   CPU_ReadMem(4 bytes @ 0xE0001000)
T1678 000:685.495 - 3.165ms
T1678 000:685.512 JLINK_IsHalted()
T1678 000:686.036 - 0.534ms returns FALSE
T1678 000:686.056 JLINK_HasError()
T1678 000:691.697 JLINK_IsHalted()
T1678 000:694.060   CPU_ReadMem(2 bytes @ 0x20000000)
T1678 000:694.543 - 2.853ms returns TRUE
T1678 000:694.560 JLINK_ReadReg(R15 (PC))
T1678 000:694.572 - 0.016ms returns 0x20000000
T1678 000:694.590 JLINK_ClrBPEx(BPHandle = 0x0000000D)
T1678 000:694.601 - 0.015ms returns 0x00
T1678 000:694.612 JLINK_ReadReg(R0)
T1678 000:694.621 - 0.013ms returns 0x00000000
T1678 000:695.521 JLINK_HasError()
T1678 000:695.534 JLINK_WriteReg(R0, 0x0002C000)
T1678 000:695.542 - 0.011ms returns 0
T1678 000:695.549 JLINK_WriteReg(R1, 0x00001000)
T1678 000:695.555 - 0.009ms returns 0
T1678 000:695.562 JLINK_WriteReg(R2, 0x000000FF)
T1678 000:695.568 - 0.009ms returns 0
T1678 000:695.575 JLINK_WriteReg(R3, 0x00000000)
T1678 000:695.582 - 0.009ms returns 0
T1678 000:695.588 JLINK_WriteReg(R4, 0x00000000)
T1678 000:695.595 - 0.009ms returns 0
T1678 000:695.601 JLINK_WriteReg(R5, 0x00000000)
T1678 000:695.607 - 0.008ms returns 0
T1678 000:695.614 JLINK_WriteReg(R6, 0x00000000)
T1678 000:695.620 - 0.008ms returns 0
T1678 000:695.627 JLINK_WriteReg(R7, 0x00000000)
T1678 000:695.633 - 0.008ms returns 0
T1678 000:695.639 JLINK_WriteReg(R8, 0x00000000)
T1678 000:695.645 - 0.009ms returns 0
T1678 000:695.652 JLINK_WriteReg(R9, 0x200005B4)
T1678 000:695.658 - 0.008ms returns 0
T1678 000:695.665 JLINK_WriteReg(R10, 0x00000000)
T1678 000:695.671 - 0.008ms returns 0
T1678 000:695.678 JLINK_WriteReg(R11, 0x00000000)
T1678 000:695.684 - 0.008ms returns 0
T1678 000:695.690 JLINK_WriteReg(R12, 0x00000000)
T1678 000:695.696 - 0.008ms returns 0
T1678 000:695.703 JLINK_WriteReg(R13 (SP), 0x20002000)
T1678 000:695.709 - 0.009ms returns 0
T1678 000:695.716 JLINK_WriteReg(R14, 0x20000001)
T1678 000:695.723 - 0.009ms returns 0
T1678 000:695.729 JLINK_WriteReg(R15 (PC), 0x20000288)
T1678 000:695.735 - 0.008ms returns 0
T1678 000:695.742 JLINK_WriteReg(XPSR, 0x01000000)
T1678 000:695.748 - 0.008ms returns 0
T1678 000:695.755 JLINK_WriteReg(MSP, 0x20002000)
T1678 000:695.761 - 0.008ms returns 0
T1678 000:695.767 JLINK_WriteReg(PSP, 0x20002000)
T1678 000:695.773 - 0.008ms returns 0
T1678 000:695.780 JLINK_WriteReg(CFBP, 0x00000000)
T1678 000:695.786 - 0.008ms returns 0
T1678 000:695.793 JLINK_SetBPEx(Addr = 0x20000000, Type = 0xFFFFFFF2)
T1678 000:695.799 - 0.009ms returns 0x0000000E
T1678 000:695.806 JLINK_Go()
T1678 000:695.817   CPU_ReadMem(4 bytes @ 0xE0001000)
T1678 000:698.483 - 2.688ms
T1678 000:698.503 JLINK_IsHalted()
T1678 000:700.856   CPU_ReadMem(2 bytes @ 0x20000000)
T1678 000:701.344 - 2.846ms returns TRUE
T1678 000:701.356 JLINK_ReadReg(R15 (PC))
T1678 000:701.366 - 0.013ms returns 0x20000000
T1678 000:701.376 JLINK_ClrBPEx(BPHandle = 0x0000000E)
T1678 000:701.384 - 0.012ms returns 0x00
T1678 000:701.393 JLINK_ReadReg(R0)
T1678 000:701.401 - 0.011ms returns 0x00000001
T1678 000:701.410 JLINK_HasError()
T1678 000:701.419 JLINK_WriteReg(R0, 0x0002C000)
T1678 000:701.433 - 0.016ms returns 0
T1678 000:701.442 JLINK_WriteReg(R1, 0x00001000)
T1678 000:701.449 - 0.011ms returns 0
T1678 000:701.458 JLINK_WriteReg(R2, 0x000000FF)
T1678 000:701.466 - 0.011ms returns 0
T1678 000:701.475 JLINK_WriteReg(R3, 0x00000000)
T1678 000:701.483 - 0.011ms returns 0
T1678 000:701.491 JLINK_WriteReg(R4, 0x00000000)
T1678 000:701.499 - 0.011ms returns 0
T1678 000:701.510 JLINK_WriteReg(R5, 0x00000000)
T1678 000:701.518 - 0.011ms returns 0
T1678 000:701.531 JLINK_WriteReg(R6, 0x00000000)
T1678 000:701.539 - 0.012ms returns 0
T1678 000:701.550 JLINK_WriteReg(R7, 0x00000000)
T1678 000:701.558 - 0.011ms returns 0
T1678 000:701.568 JLINK_WriteReg(R8, 0x00000000)
T1678 000:701.575 - 0.011ms returns 0
T1678 000:701.586 JLINK_WriteReg(R9, 0x200005B4)
T1678 000:701.593 - 0.011ms returns 0
T1678 000:701.604 JLINK_WriteReg(R10, 0x00000000)
T1678 000:701.611 - 0.011ms returns 0
T1678 000:701.621 JLINK_WriteReg(R11, 0x00000000)
T1678 000:701.629 - 0.011ms returns 0
T1678 000:701.639 JLINK_WriteReg(R12, 0x00000000)
T1678 000:701.647 - 0.011ms returns 0
T1678 000:701.657 JLINK_WriteReg(R13 (SP), 0x20002000)
T1678 000:701.668 - 0.014ms returns 0
T1678 000:701.678 JLINK_WriteReg(R14, 0x20000001)
T1678 000:701.686 - 0.011ms returns 0
T1678 000:701.696 JLINK_WriteReg(R15 (PC), 0x200000D4)
T1678 000:701.704 - 0.011ms returns 0
T1678 000:701.714 JLINK_WriteReg(XPSR, 0x01000000)
T1678 000:701.722 - 0.011ms returns 0
T1678 000:701.733 JLINK_WriteReg(MSP, 0x20002000)
T1678 000:701.740 - 0.011ms returns 0
T1678 000:701.750 JLINK_WriteReg(PSP, 0x20002000)
T1678 000:701.758 - 0.011ms returns 0
T1678 000:701.768 JLINK_WriteReg(CFBP, 0x00000000)
T1678 000:701.776 - 0.011ms returns 0
T1678 000:701.786 JLINK_SetBPEx(Addr = 0x20000000, Type = 0xFFFFFFF2)
T1678 000:701.795 - 0.012ms returns 0x0000000F
